freq_Hz,Ex_re,Ex_im,Ey_re,Ey_im,Ez_re,Ez_im,Hx_re,Hx_im,Hy_re,Hy_im,Hz_re,Hz_im,Bx_re,Bx_im,By_re,By_im,Bz_re,Bz_im
1,0,0,-3.9094194834722499173570207852536e-13,-3.4403451011822281759777222778851e-13,0,0,-2.2640289176724332163676582745624e-10,1.3144982216475911044927439540322e-10,0,0,-2.6199521617139733953362433481255e-11,-7.7375883938444809418660292279113e-11,-2.8450626461098265602980249984586e-16,1.6518471825139678422988334915574e-16,0,0,-3.2923289855989263039724897878815e-17,-9.723340341841386323828341064603e-17
1,0,0,-4.4482268921071028236746432646015e-13,-4.4297950390517597589463152284739e-13,0,0,-2.7589267406654833048196929410039e-10,1.4127653901649237993398204933811e-10,0,0,-4.4488228061349121002198439682213e-11,-8.090378519049294239844635061941e-11,-3.4669695921068456126524023169194e-16,1.7753333483952169430114430278127e-16,0,0,-5.5905556179504669601238173852889e-17,-1.0166669488082372555986772814338e-16
1,0,0,-5.0223036325013879438226036301153e-13,-5.6259455318189929452326213711894e-13,0,0,-3.3083195961368812340355179369919e-10,1.4912325908930732898545512621141e-10,0,0,-7.3221803451771406516663956948285e-11,-8.2591244895557562483399805812245e-11,-4.1573570155803106522617395336769e-16,1.8739381409373408726758193723227e-16,0,0,-9.2013231922672319090537369730815e-17,-1.0378721928588764822844305031304e-16
1,0,0,-5.6213049727563282583050737200641e-13,-7.0457547486452042310587400888522e-13,0,0,-3.8859452669451876994150858616109e-10,1.5365119844453894648553134573925e-10,0,0,-1.1606518823617275107372338676008e-10,-8.1998782880577340143812278265865e-11,-4.8832228411548112891582324289047e-16,1.9308379049945239903297892218366e-16,0,0,-1.4585181708011072477747393107908e-16,-1.0304270956037050376376426000876e-16
1,0,0,-6.2289202384336052079426274532268e-13,-8.6915647159980885165028069142746e-13,0,0,-4.4428348071289308232885649237837e-10,1.5318140746540360653775441794811e-10,0,0,-1.7675570082225613958783765071101e-10,-7.8847313465078238743579852224286e-11,-5.5830308764757098324446297913894e-16,1.9249343374394265369698454385928e-16,0,0,-2.221177644733260947870549655593e-16,-9.9082456294872554236157805579196e-17
1,0,0,-6.8216524670845668831922459055694e-13,-1.0540862508676113479838855534799e-12,0,0,-4.9013320724096850589092464449024e-10,1.4577599906106219843678518830545e-10,0,0,-2.5807247117982307318424634758731e-10,-7.3193459504385160617476923034311e-11,-6.1591955325945211084937634297253e-16,1.8318752308797824198873666420951e-16,0,0,-3.2430343182091829708610947187357e-16,-9.1977613867919375209406986632303e-17
1,0,0,-7.3681852835354211031193409534268e-13,-1.2534595422694831516409208556893e-12,0,0,-5.1547214440443649446176516677287e-10,1.2946426536956401679097855925436e-10,0,0,-3.6014440748712410455280727103206e-10,-6.5637405113142914739464286002276e-11,-6.4776140079646181935586780139148e-16,1.6268959399496871029192638051661e-16,0,0,-4.5257080991719921476605571887931e-16,-8.248239588165876624750927619284e-17
1,0,0,-7.8300114427718440828283791003256e-13,-1.4567534451498418263559305214525e-12,0,0,-5.0791792058772669214593761867504e-10,1.0266023217572083612079120259369e-10,0,0,-4.7831385313496454177154576067519e-10,-5.7497045286861430459111348081783e-11,-6.3826848317800247251890695893293e-16,1.2900665248762682628293297200387e-16,0,0,-6.010669148476126684788848687034e-16,-7.2252918030529402984940738923112e-17
1,0,0,-8.1640785837409179714510906638627e-13,-1.6486828069397165667844466053956e-12,0,0,-4.563899707406790618304104695859e-10,6.4755616021579442991503020318154e-11,0,0,-6.0140116561477762012365206968959e-10,-5.0829936053494677278104245508425e-11,-5.7351655170039118875261580593228e-16,8.137430702883019874293524956618e-17,0,0,-7.5574299350228957325279189017457e-16,-6.3874781475239132812443324434204e-17
1,0,0,-8.3279136834539378313780648524026e-13,-1.8105927573022390070628644748613e-12,0,0,-3.5573996634015450130637668956879e-10,1.6745927037038658007836865010546e-11,0,0,-7.1186163532206515441871811654992e-10,-4.8167453588063005411724769374646e-11,-4.4703602593700384423983463731488e-16,2.1043552542844533697047250431364e-17,0,0,-8.9455171356008646846878089616593e-16,-6.0529007333754418120440813983258e-17
1,0,0,-8.2868304746876674380601348189631e-13,-1.9237442473320416917711255314411e-12,0,0,-2.112879090229444161634156280712e-10,-3.8396934558627552606669656303244e-11,0,0,-7.892179222829112972761575866003e-10,-5.190635976240914264668261410789e-11,-2.6551221711153229493882010139716e-16,-4.8251011011900945939001655033938e-17,0,0,-9.9176049069015771915519040693911e-16,-6.5227455401669352456050668151278e-17
1,0,0,-8.2110470689450253577708382436201e-13,-1.9658474966240165376892563538688e-12,0,0,2.8041202841740791554219945158566e-13,1.4429819218186411773187098618497e-13,0,0,-8.1706249837432347529408112733773e-10,-5.5698657546156099243806583516604e-11,3.5237614738173638352191327400968e-19,1.8133045619393295330985980948387e-19,0,0,-1.0267510169665986667868747334805e-15,-6.9992997344727072848032891334892e-17
1,0,0,-8.2879750069816106934647074054723e-13,-1.923522542287555502603236432436e-12,0,0,2.1185101739948823031555157555563e-10,3.8689485572195859780007523500301e-11,0,0,-7.8931885429887704631962767323414e-10,-5.1942023893448631676797030038516e-11,2.6621983996710222655813845808973e-16,4.8618641457911520529377773264502e-17,0,0,-9.9188732560210569799412064981448e-16,-6.5272272270497494234905501610488e-17
1,0,0,-8.3302630286790073657950195264058e-13,-1.810149047751343808942214496103e-12,0,0,3.5630129935748389283856590199209e-10,-1.6424915326919659594925525081293e-11,0,0,-7.1206396508292961505777191659971e-10,-4.8241065274617372263942986238756e-11,4.4774141781038757382187955817066e-16,-2.064015733075407792916613269482e-17,0,0,-8.9480596863622020083647472248883e-16,-6.0621510507233443950650128936395e-17
1,0,0,-8.1677832993046267055330050606109e-13,-1.6480181474737522630812938213468e-12,0,0,4.5694756206414220610215715746632e-10,-6.4386698801144111145662993983074e-11,0,0,-6.0170531144825798530508065915974e-10,-5.0947420335735400815472452417876e-11,5.742172416225900438302072051494e-16,-8.0910711977029235525002300971889e-17,0,0,-7.5612519442872231466537732178748e-16,-6.4022416578439020130570879223458e-17
1,0,0,-7.8353001281507655036846185081813e-13,-1.455869909977287433768283243419e-12,0,0,5.0846847649244044719119749054111e-10,-1.02223273549643376623441128615e-10,0,0,-4.7872028890668801152817483639148e-10,-5.7667401902251917544139687179768e-11,6.3896033213225806528811649196054e-16,-1.2845755408378375560562796308101e-16,0,0,-6.0157765710145369817672651728403e-16,-7.2466994467089867842535771933812e-17
1,0,0,-7.3753678190677339456441119237433e-13,-1.2523608647077850611121459806652e-12,0,0,5.1601044958746217598177981073643e-10,-1.2893818310054756526198125695428e-10,0,0,-3.6065346192276385681484595686517e-10,-6.5872842626254655022861489696752e-11,6.4843785503981492726501848925408e-16,-1.620284995183583276255430442029e-16,0,0,-4.5321050658731241663086028722779e-16,-8.2778255386287268010796041450355e-17
1,0,0,-6.8311242147671696671890915514067e-13,-1.0527787097135649091110765376142e-12,0,0,4.9065146488930944907439969483796e-10,-1.4513853401789767724244071258547e-10,0,0,-2.5868405194484418331666953750714e-10,-7.3509571364338102902517398950941e-11,6.1657081502772996905131957544776e-16,-1.8238646088936783699713289415281e-16,0,0,-3.2507196687630513649144705148248e-16,-9.2374851746695680377151997703088e-17
1,0,0,-6.2411670874211766010262942580734e-13,-8.6765005449026026205888750168716e-13,0,0,4.44770565477036030948769181249e-10,-1.5240892818352221514818097637461e-10,0,0,-1.7746893610754727210788037735978e-10,-7.9263293306599005290556615380685e-11,5.5891517641425375714692248596428e-16,-1.9152270764913909405336843102263e-16,0,0,-2.2301404236634675878776712368247e-16,-9.9605191980537776752772129343068e-17
1,0,0,-5.6369090659965073164295247172886e-13,-7.0288535754506736124819649478585e-13,0,0,3.8903512722166250287027527778624e-10,-1.5271855396726690822108923756566e-10,0,0,-1.168779767909815435364040488812e-10,-8.2537675493157147555696843146494e-11,4.8887595906717819756955989711085e-16,-1.9191179488416881072231424359168e-16,0,0,-1.4687319730119435559296955151136e-16,-1.0371990198947231356230653603614e-16
1,0,0,-5.0419495520656399100473649338336e-13,-5.6074294329837854504822644588668e-13,0,0,3.3120558476780038873178407173047e-10,-1.4800369690958255554884485640172e-10,0,0,-7.4130262231937866407361112608366e-11,-8.3280228263737941482344001786824e-11,4.1620521277377327663382458327643e-16,-1.8598693076610996090329776032397e-16,0,0,-9.3154834894616367207555065488073e-17,-1.0465302132105606215866868607458e-16
1,0,0,-4.4727080054371870993865010138997e-13,-4.4099790874108429501530200232015e-13,0,0,2.7617249384947762707080466342935e-10,-1.3994170966418188888240841805252e-10,0,0,-4.5486024959765058292063063156318e-11,-8.1774477855818495769466077700653e-11,3.4704859112043649508650783759904e-16,-1.7585593880471581489959366177205e-16,0,0,-5.7159424741839949786852953909821e-17,-1.0276083955319222926370735870286e-16
1,0,0,-3.9396440562599414972309794362951e-13,-3.419664998647320944777289234414e-13,0,0,2.2655438019105054950199998382328e-10,-1.298698980258163511910380171006e-10,0,0,-2.7277079176403208367503876667271e-11,-7.8464670671394509046918535702408e-11,2.8469663057871732036800308669904e-16,-1.631993270241440811992002015083e-16,0,0,-3.4277388620790180855203438610663e-17,-9.8601613179038187622471579598925e-17
1,0,0,-3.4486087837830195806959172268239e-13,-2.6126245497083893800740208530858e-13,0,0,1.8340419555189054213614359141286e-10,-1.1879115091701471713665041847409e-10,0,0,-1.6389732509091346734470067862539e-11,-7.3834320551301148523623785148093e-11,2.3047250935334603212339622889453e-16,-1.4927736281294793835793133564179e-16,0,0,-2.0595945297945270797719113033052e-17,-9.278294361070461859571282671606e-17
1,0,0,-3.0020808993953767963240885825147e-13,-1.9629134398926200014605542215463e-13,0,0,1.4681026894095752976256645754813e-10,-1.0742043871525876841734087097134e-10,0,0,-1.0400064024318842529796708966506e-11,-6.8334756710084269553956463873949e-11,1.844872249505815599469925861178e-16,-1.3498850444529980652516881626881e-16,0,0,-1.3069105894265428590322731759637e-17,-8.5871987866098626746193431049292e-17
1,0,0,-2.6001884652382929356086236505374e-13,-1.445398745049924694938155499683e-13,0,0,1.1633230862642359512902181368265e-10,-9.6243487922117241543986961677896e-11,0,0,-7.5302302811504659736686734042424e-12,-6.2350715871329195746679364290244e-11,1.4618749046236515530814988961644e-16,-1.2094313384479260960983043236882e-16,0,0,-9.4627664524406811292728311170147e-18,-7.8352220370972922478634927565129e-17
1,0,0,-2.2415011430394174669817831739441e-13,-1.0372392787071561676472946243773e-13,0,0,9.1286391690543965388943554363651e-11,-8.5572757603377556569419587457977e-11,0,0,-6.5346547495844315535485537004156e-12,-5.6189663190633369983574662720352e-11,1.1471386300309329515043752012266e-16,-1.0753389865367640503200510888714e-16,0,0,-8.2116893420160395734793347141722e-18,-7.0610013234951445465109028806496e-17
1,0,0,-1.9236177467262112390876792052846e-13,-7.1847863861337473458467449228025e-14,0,0,7.0916071471289979036502691967908e-11,-7.5594649936054108045814499424841e-11,0,0,-6.5746029014081569880005799223468e-12,-5.0084478888372400116429953216646e-11,8.9115763662261317389381938340246e-17,-9.4995038755919867457626165444377e-17,0,0,-8.2618896701336010439143195784045e-18,-6.2938012373833524773725405155882e-17
1,0,0,-1.6435873276864255875353676149789e-13,-4.7212574379606537011242543027106e-14,0,0,5.44864687814881707375298455352e-11,-6.6406657415478432434512120011996e-11,0,0,-7.1070911056594465529955982114772e-12,-4.4202550584411599246268642325811e-11,6.8469716017589136109474013252947e-17,-8.3449066834368474677433748565116e-17,0,0,-8.9310340823732301750839701118497e-18,-5.554656327436747247916133757693e-17
1,0,0,-1.3982021970874189065877955055252e-13,-2.8396713137202177915762259475126e-14,0,0,4.1330091757286321242170923488757e-11,-5.8045333733843804289800700442738e-11,0,0,-7.7962250890004900640632651240279e-12,-3.8657070971075278759506688783983e-11,5.193692505475310817442485237367e-17,-7.2941917613364595338084456810537e-17,0,0,-9.7970253861345475763783053380751e-18,-4.8577908068811736000435157812895e-17
1,0,0,-1.1841959741488323529884390628419e-13,-1.4225961282049799346036282927437e-14,0,0,3.0864284520819423951828226002639e-11,-5.0506729021445931104264238735956e-11,0,0,-8.4466466498594554764920580456085e-12,-3.3518252158864007778300177807978e-11,3.878520380356458452469852351959e-17,-6.3468627540249975523753606834479e-17,0,0,-1.0614369225066919715592728399498e-17,-4.212027789738294960543975832219e-17
1,0,0,-9.9837300879762534386971864638058e-14,-3.7388069851657612274738204798157e-15,0,0,2.2593091726133098496844892278729e-11,-4.3760990244967330420139460186063e-11,0,0,-8.9555670993807154817303545238972e-12,-2.8823366444398077797837092015725e-11,2.8391316395480028153148869419274e-17,-5.4991682186961583972486458704525e-17,0,0,-1.1253897523257961741892130884008e-17,-3.6220510509379024079694654648499e-17
